T425C 000:001.134   SEGGER J-Link V7.92o Log File
T425C 000:001.336   DLL Compiled: Nov  8 2023 15:40:38
T425C 000:001.353   Logging started @ 2024-03-09 08:33
T425C 000:001.367   Process: C:\Users\a5095317\.eclipse\com.renesas.platform_866241240\DebugComp\RA\e2-server-gdb.exe
T425C 000:001.389 - 1.381ms
T425C 000:001.415 JLINK_GetDLLVersion()
T425C 000:001.432 - 0.018ms returns 79215
T425C 000:002.221 JLINK_OpenEx(...)
T425C 000:015.866   Firmware: J-Link OB-RA4M2 compiled Oct 30 2023 12:13:20
T425C 000:016.853   Firmware: J-Link OB-RA4M2 compiled Oct 30 2023 12:13:20
T425C 000:034.595   Hardware: V1.00
T425C 000:034.696   S/N: 1089050907
T425C 000:034.727   OEM: SEGGER
T425C 000:034.749   Feature(s): None
T425C 000:036.309   Bootloader: 2021 May 14
T425C 000:037.172   USB speed mode: Full speed (12 MBit/s)
T425C 000:037.910   TELNET listener socket opened on port 19021
T425C 000:038.245   WEBSRV WEBSRV_Init(): Starting webserver thread(s)
T425C 000:038.611   WEBSRV Webserver running on local port 19080
T425C 000:038.994   Looking for J-Link GUI Server exe at: C:\Users\a5095317\.eclipse\com.renesas.platform_866241240\DebugComp\RA\ARM\Segger_v7.92.15\JLinkGUIServer.exe
T425C 000:039.205   Looking for J-Link GUI Server exe at: \JLinkGUIServer.exe
T425C 000:341.791   Failed to connect to J-Link GUI Server.
T425C 000:341.912 - 339.677ms returns "O.K."
T425C 000:342.178 JLINK_TIF_Select(JLINKARM_TIF_SWD)
T425C 000:343.374 - 1.194ms returns 0x00
T425C 000:343.420 JLINK_ClrRESET()
T425C 000:343.879 - 0.458ms
T425C 000:395.409 JLINK_SetSpeed(1500)
T425C 000:395.789 - 0.390ms
T425C 000:395.897 JLINK_CORESIGHT_Configure(PerformTIFInit=0)
T425C 000:396.560 - 0.672ms returns 0
T425C 000:396.608 JLINK_CORESIGHT_ReadAPDPReg(DP reg 0x00)
T425C 000:397.183   Value=0x6BA02477
T425C 000:397.226 - 0.618ms returns 0
T425C 000:397.242 JLINK_CORESIGHT_WriteAPDPReg(DP reg 0x00, 0x0000001F)
T425C 000:397.776 - 0.533ms returns 0
T425C 000:397.809 JLINK_CORESIGHT_ReadAPDPReg(DP reg 0x00)
T425C 000:398.206   Value=0x6BA02477
T425C 000:398.244 - 0.434ms returns 0
T425C 000:398.260 JLINK_CORESIGHT_WriteAPDPReg(DP reg 0x02, 0x00000000)
T425C 000:398.694 - 0.434ms returns 0
T425C 000:398.730 JLINK_CORESIGHT_WriteAPDPReg(DP reg 0x01, 0x50000000)
T425C 000:399.260 - 0.529ms returns 0
T425C 000:399.298 JLINK_CORESIGHT_ReadAPDPReg(DP reg 0x01)
T425C 000:399.776   Value=0xF0000040
T425C 000:399.819 - 0.520ms returns 0
T425C 000:399.838 JLINK_CORESIGHT_WriteAPDPReg(DP reg 0x00, 0x0000001F)
T425C 000:400.263 - 0.423ms returns 0
T425C 000:400.299 JLINK_CORESIGHT_ReadAPDPReg(DP reg 0x00)
T425C 000:400.725   Value=0x6BA02477
T425C 000:400.763 - 0.464ms returns 0
T425C 000:400.780 JLINK_CORESIGHT_WriteAPDPReg(DP reg 0x01, 0x54000000)
T425C 000:401.272 - 0.491ms returns 0
T425C 000:401.306 JLINK_CORESIGHT_WriteAPDPReg(DP reg 0x01, 0x50000F00)
T425C 000:401.735 - 0.428ms returns 0
T425C 000:401.771 JLINK_CORESIGHT_WriteAPDPReg(DP reg 0x02, 0x01000000)
T425C 000:402.215 - 0.443ms returns 0
T425C 000:402.249 JLINK_CORESIGHT_WriteAPDPReg(AP reg 0x00, 0x80000002)
T425C 000:402.715 - 0.466ms returns 0
T425C 000:402.749 JLINK_CORESIGHT_WriteAPDPReg(AP reg 0x01, 0x80011100)
T425C 000:403.108 - 0.358ms returns 0
T425C 000:403.144 JLINK_CORESIGHT_WriteAPDPReg(AP reg 0x03, 0x000000A5)
T425C 000:403.578 - 0.433ms returns 0
T425C 000:403.612 JLINK_CORESIGHT_WriteAPDPReg(AP reg 0x00, 0x80000002)
T425C 000:404.017 - 0.405ms returns 0
T425C 000:404.052 JLINK_CORESIGHT_WriteAPDPReg(AP reg 0x01, 0x80011100)
T425C 000:404.589 - 0.534ms returns 0
T425C 000:404.633 JLINK_CORESIGHT_ReadAPDPReg(AP reg 0x03)
T425C 000:405.092   Value=0x000000A5
T425C 000:405.136 - 0.502ms returns 0
T425C 000:405.161 JLINK_ClrTMS()
T425C 000:405.396 - 0.234ms
T425C 000:410.927 JLINK_SetTCK()
T425C 000:411.246 - 0.318ms returns 0
T425C 000:417.035 JLINK_SetRESET()
T425C 000:417.327 - 0.291ms
T425C 000:618.231 JLINK_CORESIGHT_WriteAPDPReg(AP reg 0x00, 0x80000002)
T425C 000:618.736 - 0.505ms returns 0
T425C 000:618.777 JLINK_CORESIGHT_WriteAPDPReg(AP reg 0x01, 0x80011100)
T425C 000:619.333 - 0.556ms returns 0
T425C 000:619.373 JLINK_CORESIGHT_ReadAPDPReg(AP reg 0x03)
T425C 000:619.953   Value=0x00000000
T425C 000:619.990 - 0.617ms returns 0
T425C 000:620.009 JLINK_CORESIGHT_WriteAPDPReg(AP reg 0x00, 0x80000002)
T425C 000:620.557 - 0.548ms returns 0
T425C 000:620.590 JLINK_CORESIGHT_WriteAPDPReg(AP reg 0x01, 0x80011140)
T425C 000:621.091 - 0.500ms returns 0
T425C 000:621.129 JLINK_CORESIGHT_ReadAPDPReg(AP reg 0x03)
T425C 000:621.546   Value=0x00000002
T425C 000:621.588 - 0.459ms returns 0
T425C 000:621.607 JLINK_CORESIGHT_WriteAPDPReg(AP reg 0x00, 0x80000002)
T425C 000:622.095 - 0.488ms returns 0
T425C 000:622.129 JLINK_CORESIGHT_WriteAPDPReg(AP reg 0x01, 0x80011120)
T425C 000:622.452 - 0.322ms returns 0
T425C 000:622.488 JLINK_CORESIGHT_WriteAPDPReg(AP reg 0x03, 0x00000055)
T425C 000:622.905 - 0.416ms returns 0
T425C 000:622.945 JLINK_CORESIGHT_WriteAPDPReg(AP reg 0x00, 0x80000002)
T425C 000:623.258 - 0.312ms returns 0
T425C 000:623.297 JLINK_CORESIGHT_WriteAPDPReg(AP reg 0x01, 0x80011140)
T425C 000:623.632 - 0.334ms returns 0
T425C 000:623.670 JLINK_CORESIGHT_ReadAPDPReg(AP reg 0x03)
T425C 000:624.098   Value=0x00000000
T425C 000:624.151 - 0.480ms returns 0
T425C 000:624.172 JLINK_CORESIGHT_WriteAPDPReg(AP reg 0x00, 0x80000002)
T425C 000:624.520 - 0.347ms returns 0
T425C 000:624.559 JLINK_CORESIGHT_WriteAPDPReg(AP reg 0x01, 0x80011130)
T425C 000:624.806 - 0.246ms returns 0
T425C 000:624.845 JLINK_CORESIGHT_ReadAPDPReg(AP reg 0x03)
T425C 000:625.348   Value=0x000000C6
T425C 000:625.389 - 0.544ms returns 0
T425C 000:626.036 JLINK_CORESIGHT_WriteAPDPReg(AP reg 0x00, 0x80000002)
T425C 000:626.414 - 0.377ms returns 0
T425C 000:626.450 JLINK_CORESIGHT_WriteAPDPReg(AP reg 0x01, 0x80011140)
T425C 000:626.872 - 0.421ms returns 0
T425C 000:626.910 JLINK_CORESIGHT_ReadAPDPReg(AP reg 0x03)
T425C 000:627.326   Value=0x00000002
T425C 000:627.366 - 0.456ms returns 0
T425C 000:627.384 JLINK_CORESIGHT_WriteAPDPReg(AP reg 0x00, 0x80000002)
T425C 000:627.695 - 0.310ms returns 0
T425C 000:627.732 JLINK_CORESIGHT_WriteAPDPReg(AP reg 0x01, 0x80011120)
T425C 000:627.992 - 0.260ms returns 0
T425C 000:628.028 JLINK_CORESIGHT_WriteAPDPReg(AP reg 0x03, 0x3A010001)
T425C 000:628.297 - 0.268ms returns 0
T425C 000:628.334 JLINK_CORESIGHT_WriteAPDPReg(AP reg 0x00, 0x80000002)
T425C 000:628.634 - 0.300ms returns 0
T425C 000:628.676 JLINK_CORESIGHT_WriteAPDPReg(AP reg 0x01, 0x80011140)
T425C 000:629.028 - 0.351ms returns 0
T425C 000:629.067 JLINK_CORESIGHT_ReadAPDPReg(AP reg 0x03)
T425C 000:629.407   Value=0x00000002
T425C 000:629.447 - 0.380ms returns 0
T425C 000:629.466 JLINK_CORESIGHT_WriteAPDPReg(AP reg 0x00, 0x80000002)
T425C 000:629.789 - 0.322ms returns 0
T425C 000:629.828 JLINK_CORESIGHT_WriteAPDPReg(AP reg 0x01, 0x80011120)
T425C 000:630.091 - 0.262ms returns 0
T425C 000:630.128 JLINK_CORESIGHT_WriteAPDPReg(AP reg 0x03, 0x000003C5)
T425C 000:630.424 - 0.295ms returns 0
T425C 000:630.461 JLINK_CORESIGHT_WriteAPDPReg(AP reg 0x00, 0x80000002)
T425C 000:630.716 - 0.255ms returns 0
T425C 000:630.752 JLINK_CORESIGHT_WriteAPDPReg(AP reg 0x01, 0x80011140)
T425C 000:631.015 - 0.262ms returns 0
T425C 000:631.051 JLINK_CORESIGHT_ReadAPDPReg(AP reg 0x03)
T425C 000:631.522   Value=0x00000000
T425C 000:631.563 - 0.512ms returns 0
T425C 000:631.581 JLINK_CORESIGHT_WriteAPDPReg(AP reg 0x00, 0x80000002)
T425C 000:631.898 - 0.316ms returns 0
T425C 000:631.943 JLINK_CORESIGHT_WriteAPDPReg(AP reg 0x01, 0x80011130)
T425C 000:632.210 - 0.266ms returns 0
T425C 000:632.247 JLINK_CORESIGHT_ReadAPDPReg(AP reg 0x03)
T425C 000:632.590   Value=0x3A2A0081
T425C 000:632.633 - 0.385ms returns 0
T425C 000:632.650 JLINK_CORESIGHT_WriteAPDPReg(AP reg 0x00, 0x80000002)
T425C 000:632.964 - 0.313ms returns 0
T425C 000:633.000 JLINK_CORESIGHT_WriteAPDPReg(AP reg 0x01, 0x80011140)
T425C 000:633.362 - 0.362ms returns 0
T425C 000:633.399 JLINK_CORESIGHT_ReadAPDPReg(AP reg 0x03)
T425C 000:633.828   Value=0x00000000
T425C 000:633.870 - 0.470ms returns 0
T425C 000:633.892 JLINK_CORESIGHT_WriteAPDPReg(AP reg 0x00, 0x80000002)
T425C 000:634.240 - 0.348ms returns 0
T425C 000:634.262 JLINK_CORESIGHT_WriteAPDPReg(AP reg 0x01, 0x80011130)
T425C 000:634.472 - 0.210ms returns 0
T425C 000:634.493 JLINK_CORESIGHT_ReadAPDPReg(AP reg 0x03)
T425C 000:634.781   Value=0x808D5B00
T425C 000:634.805 - 0.311ms returns 0
T425C 000:634.821 JLINK_CORESIGHT_WriteAPDPReg(AP reg 0x00, 0x80000002)
T425C 000:635.061 - 0.240ms returns 0
T425C 000:635.081 JLINK_CORESIGHT_WriteAPDPReg(AP reg 0x01, 0x80011140)
T425C 000:635.443 - 0.361ms returns 0
T425C 000:635.463 JLINK_CORESIGHT_ReadAPDPReg(AP reg 0x03)
T425C 000:635.791   Value=0x00000000
T425C 000:635.815 - 0.352ms returns 0
T425C 000:635.831 JLINK_CORESIGHT_WriteAPDPReg(AP reg 0x00, 0x80000002)
T425C 000:636.052 - 0.220ms returns 0
T425C 000:636.070 JLINK_CORESIGHT_WriteAPDPReg(AP reg 0x01, 0x80011130)
T425C 000:636.352 - 0.281ms returns 0
T425C 000:636.372 JLINK_CORESIGHT_ReadAPDPReg(AP reg 0x03)
T425C 000:636.636   Value=0x0203030A
T425C 000:636.664 - 0.291ms returns 0
T425C 000:636.680 JLINK_CORESIGHT_WriteAPDPReg(AP reg 0x00, 0x80000002)
T425C 000:636.922 - 0.241ms returns 0
T425C 000:636.946 JLINK_CORESIGHT_WriteAPDPReg(AP reg 0x01, 0x80011140)
T425C 000:637.160 - 0.214ms returns 0
T425C 000:637.185 JLINK_CORESIGHT_ReadAPDPReg(AP reg 0x03)
T425C 000:637.469   Value=0x00000000
T425C 000:637.505 - 0.319ms returns 0
T425C 000:637.522 JLINK_CORESIGHT_WriteAPDPReg(AP reg 0x00, 0x80000002)
T425C 000:637.743 - 0.221ms returns 0
T425C 000:637.767 JLINK_CORESIGHT_WriteAPDPReg(AP reg 0x01, 0x80011130)
T425C 000:637.988 - 0.221ms returns 0
T425C 000:638.007 JLINK_CORESIGHT_ReadAPDPReg(AP reg 0x03)
T425C 000:638.271   Value=0x2C4B4E12
T425C 000:638.297 - 0.290ms returns 0
T425C 000:638.315 JLINK_CORESIGHT_WriteAPDPReg(AP reg 0x00, 0x80000002)
T425C 000:638.531 - 0.215ms returns 0
T425C 000:638.550 JLINK_CORESIGHT_WriteAPDPReg(AP reg 0x01, 0x80011140)
T425C 000:638.766 - 0.215ms returns 0
T425C 000:638.784 JLINK_CORESIGHT_ReadAPDPReg(AP reg 0x03)
T425C 000:639.189   Value=0x00000000
T425C 000:639.213 - 0.428ms returns 0
T425C 000:639.228 JLINK_CORESIGHT_WriteAPDPReg(AP reg 0x00, 0x80000002)
T425C 000:639.458 - 0.230ms returns 0
T425C 000:639.478 JLINK_CORESIGHT_WriteAPDPReg(AP reg 0x01, 0x80011130)
T425C 000:639.763 - 0.285ms returns 0
T425C 000:639.783 JLINK_CORESIGHT_ReadAPDPReg(AP reg 0x03)
T425C 000:640.063   Value=0x4E0FD252
T425C 000:640.092 - 0.309ms returns 0
T425C 000:640.113 JLINK_CORESIGHT_WriteAPDPReg(AP reg 0x00, 0x80000002)
T425C 000:640.467 - 0.354ms returns 0
T425C 000:640.494 JLINK_CORESIGHT_WriteAPDPReg(AP reg 0x01, 0x80011140)
T425C 000:640.769 - 0.274ms returns 0
T425C 000:640.792 JLINK_CORESIGHT_ReadAPDPReg(AP reg 0x03)
T425C 000:641.187   Value=0x00000000
T425C 000:641.212 - 0.420ms returns 0
T425C 000:641.237 JLINK_CORESIGHT_WriteAPDPReg(AP reg 0x00, 0x80000002)
T425C 000:641.660 - 0.422ms returns 0
T425C 000:641.683 JLINK_CORESIGHT_WriteAPDPReg(AP reg 0x01, 0x80011130)
T425C 000:641.929 - 0.246ms returns 0
T425C 000:641.950 JLINK_CORESIGHT_ReadAPDPReg(AP reg 0x03)
T425C 000:642.326   Value=0x35365936
T425C 000:642.358 - 0.408ms returns 0
T425C 000:642.374 JLINK_CORESIGHT_WriteAPDPReg(AP reg 0x00, 0x80000002)
T425C 000:642.783 - 0.409ms returns 0
T425C 000:642.805 JLINK_CORESIGHT_WriteAPDPReg(AP reg 0x01, 0x80011140)
T425C 000:643.074 - 0.269ms returns 0
T425C 000:643.097 JLINK_CORESIGHT_ReadAPDPReg(AP reg 0x03)
T425C 000:643.520   Value=0x00000000
T425C 000:643.551 - 0.453ms returns 0
T425C 000:643.568 JLINK_CORESIGHT_WriteAPDPReg(AP reg 0x00, 0x80000002)
T425C 000:643.925 - 0.357ms returns 0
T425C 000:643.948 JLINK_CORESIGHT_WriteAPDPReg(AP reg 0x01, 0x80011130)
T425C 000:644.311 - 0.361ms returns 0
T425C 000:644.366 JLINK_CORESIGHT_ReadAPDPReg(AP reg 0x03)
T425C 000:644.663   Value=0x69042D33
T425C 000:644.688 - 0.322ms returns 0
T425C 000:644.702 JLINK_CORESIGHT_WriteAPDPReg(AP reg 0x00, 0x80000002)
T425C 000:645.123 - 0.419ms returns 0
T425C 000:645.184 JLINK_CORESIGHT_WriteAPDPReg(AP reg 0x01, 0x80011140)
T425C 000:645.412 - 0.227ms returns 0
T425C 000:645.445 JLINK_CORESIGHT_ReadAPDPReg(AP reg 0x03)
T425C 000:645.743   Value=0x00000000
T425C 000:645.770 - 0.325ms returns 0
T425C 000:645.794 JLINK_CORESIGHT_WriteAPDPReg(AP reg 0x00, 0x80000002)
T425C 000:647.300 - 1.504ms returns 0
T425C 000:647.350 JLINK_CORESIGHT_WriteAPDPReg(AP reg 0x01, 0x80011130)
T425C 000:647.624 - 0.273ms returns 0
T425C 000:647.644 JLINK_CORESIGHT_ReadAPDPReg(AP reg 0x03)
T425C 000:648.064   Value=0x46375275
T425C 000:648.087 - 0.443ms returns 0
T425C 000:648.102 JLINK_CORESIGHT_WriteAPDPReg(AP reg 0x00, 0x80000002)
T425C 000:648.442 - 0.339ms returns 0
T425C 000:648.460 JLINK_CORESIGHT_WriteAPDPReg(AP reg 0x01, 0x80011140)
T425C 000:648.817 - 0.356ms returns 0
T425C 000:648.836 JLINK_CORESIGHT_ReadAPDPReg(AP reg 0x03)
T425C 000:649.096   Value=0x00000000
T425C 000:649.120 - 0.284ms returns 0
T425C 000:649.136 JLINK_CORESIGHT_WriteAPDPReg(AP reg 0x00, 0x80000002)
T425C 000:649.491 - 0.355ms returns 0
T425C 000:649.514 JLINK_CORESIGHT_WriteAPDPReg(AP reg 0x01, 0x80011130)
T425C 000:649.914 - 0.400ms returns 0
T425C 000:649.935 JLINK_CORESIGHT_ReadAPDPReg(AP reg 0x03)
T425C 000:650.314   Value=0x31443841
T425C 000:650.345 - 0.410ms returns 0
T425C 000:650.361 JLINK_CORESIGHT_WriteAPDPReg(AP reg 0x00, 0x80000002)
T425C 000:650.592 - 0.231ms returns 0
T425C 000:650.611 JLINK_CORESIGHT_WriteAPDPReg(AP reg 0x01, 0x80011140)
T425C 000:650.946 - 0.332ms returns 0
T425C 000:650.969 JLINK_CORESIGHT_ReadAPDPReg(AP reg 0x03)
T425C 000:651.431   Value=0x00000000
T425C 000:651.456 - 0.487ms returns 0
T425C 000:651.475 JLINK_CORESIGHT_WriteAPDPReg(AP reg 0x00, 0x80000002)
T425C 000:651.735 - 0.259ms returns 0
T425C 000:651.755 JLINK_CORESIGHT_WriteAPDPReg(AP reg 0x01, 0x80011130)
T425C 000:652.113 - 0.357ms returns 0
T425C 000:652.135 JLINK_CORESIGHT_ReadAPDPReg(AP reg 0x03)
T425C 000:652.407   Value=0x43324842
T425C 000:652.434 - 0.299ms returns 0
T425C 000:652.454 JLINK_CORESIGHT_WriteAPDPReg(AP reg 0x00, 0x80000002)
T425C 000:652.738 - 0.284ms returns 0
T425C 000:652.764 JLINK_CORESIGHT_WriteAPDPReg(AP reg 0x01, 0x80011140)
T425C 000:652.988 - 0.223ms returns 0
T425C 000:653.009 JLINK_CORESIGHT_ReadAPDPReg(AP reg 0x03)
T425C 000:653.314   Value=0x00000000
T425C 000:653.359 - 0.350ms returns 0
T425C 000:653.378 JLINK_CORESIGHT_WriteAPDPReg(AP reg 0x00, 0x80000002)
T425C 000:653.600 - 0.222ms returns 0
T425C 000:653.622 JLINK_CORESIGHT_WriteAPDPReg(AP reg 0x01, 0x80011130)
T425C 000:653.865 - 0.242ms returns 0
T425C 000:653.888 JLINK_CORESIGHT_ReadAPDPReg(AP reg 0x03)
T425C 000:654.169   Value=0x20204442
T425C 000:654.195 - 0.306ms returns 0
T425C 000:654.216 JLINK_CORESIGHT_WriteAPDPReg(AP reg 0x00, 0x80000002)
T425C 000:654.579 - 0.363ms returns 0
T425C 000:654.599 JLINK_CORESIGHT_WriteAPDPReg(AP reg 0x01, 0x80011140)
T425C 000:654.887 - 0.288ms returns 0
T425C 000:654.907 JLINK_CORESIGHT_ReadAPDPReg(AP reg 0x03)
T425C 000:655.251   Value=0x00000000
T425C 000:655.298 - 0.390ms returns 0
T425C 000:655.321 JLINK_CORESIGHT_WriteAPDPReg(AP reg 0x00, 0x80000002)
T425C 000:655.581 - 0.260ms returns 0
T425C 000:655.605 JLINK_CORESIGHT_WriteAPDPReg(AP reg 0x01, 0x80011130)
T425C 000:655.901 - 0.295ms returns 0
T425C 000:655.921 JLINK_CORESIGHT_ReadAPDPReg(AP reg 0x03)
T425C 000:656.260   Value=0x0003EC20
T425C 000:656.305 - 0.383ms returns 0
T425C 000:656.927 JLINK_CORESIGHT_WriteAPDPReg(AP reg 0x00, 0x80000002)
T425C 000:657.237 - 0.310ms returns 0
T425C 000:657.263 JLINK_CORESIGHT_WriteAPDPReg(AP reg 0x01, 0x80011140)
T425C 000:657.555 - 0.291ms returns 0
T425C 000:657.598 JLINK_CORESIGHT_ReadAPDPReg(AP reg 0x03)
T425C 000:657.885   Value=0x00000002
T425C 000:657.911 - 0.312ms returns 0
T425C 000:657.928 JLINK_CORESIGHT_WriteAPDPReg(AP reg 0x00, 0x80000002)
T425C 000:658.145 - 0.216ms returns 0
T425C 000:658.164 JLINK_CORESIGHT_WriteAPDPReg(AP reg 0x01, 0x80011120)
T425C 000:658.406 - 0.241ms returns 0
T425C 000:658.427 JLINK_CORESIGHT_WriteAPDPReg(AP reg 0x03, 0x3A010001)
T425C 000:658.726 - 0.298ms returns 0
T425C 000:658.750 JLINK_CORESIGHT_WriteAPDPReg(AP reg 0x00, 0x80000002)
T425C 000:658.973 - 0.223ms returns 0
T425C 000:659.002 JLINK_CORESIGHT_WriteAPDPReg(AP reg 0x01, 0x80011140)
T425C 000:659.245 - 0.242ms returns 0
T425C 000:659.280 JLINK_CORESIGHT_ReadAPDPReg(AP reg 0x03)
T425C 000:659.559   Value=0x00000002
T425C 000:659.600 - 0.320ms returns 0
T425C 000:659.617 JLINK_CORESIGHT_WriteAPDPReg(AP reg 0x00, 0x80000002)
T425C 000:659.841 - 0.224ms returns 0
T425C 000:659.867 JLINK_CORESIGHT_WriteAPDPReg(AP reg 0x01, 0x80011120)
T425C 000:660.092 - 0.224ms returns 0
T425C 000:660.132 JLINK_CORESIGHT_WriteAPDPReg(AP reg 0x03, 0x000003C5)
T425C 000:660.363 - 0.231ms returns 0
T425C 000:660.393 JLINK_CORESIGHT_WriteAPDPReg(AP reg 0x00, 0x80000002)
T425C 000:660.612 - 0.218ms returns 0
T425C 000:660.632 JLINK_CORESIGHT_WriteAPDPReg(AP reg 0x01, 0x80011140)
T425C 000:660.871 - 0.239ms returns 0
T425C 000:660.892 JLINK_CORESIGHT_ReadAPDPReg(AP reg 0x03)
T425C 000:661.156   Value=0x00000000
T425C 000:661.181 - 0.289ms returns 0
T425C 000:661.198 JLINK_CORESIGHT_WriteAPDPReg(AP reg 0x00, 0x80000002)
T425C 000:661.416 - 0.217ms returns 0
T425C 000:661.442 JLINK_CORESIGHT_WriteAPDPReg(AP reg 0x01, 0x80011130)
T425C 000:661.768 - 0.325ms returns 0
T425C 000:661.819 JLINK_CORESIGHT_ReadAPDPReg(AP reg 0x03)
T425C 000:662.208   Value=0x3A2A0081
T425C 000:662.259 - 0.439ms returns 0
T425C 000:662.277 JLINK_CORESIGHT_WriteAPDPReg(AP reg 0x00, 0x80000002)
T425C 000:662.556 - 0.278ms returns 0
T425C 000:662.590 JLINK_CORESIGHT_WriteAPDPReg(AP reg 0x01, 0x80011140)
T425C 000:662.924 - 0.334ms returns 0
T425C 000:662.968 JLINK_CORESIGHT_ReadAPDPReg(AP reg 0x03)
T425C 000:663.285   Value=0x00000000
T425C 000:663.321 - 0.352ms returns 0
T425C 000:663.337 JLINK_CORESIGHT_WriteAPDPReg(AP reg 0x00, 0x80000002)
T425C 000:663.798 - 0.460ms returns 0
T425C 000:663.842 JLINK_CORESIGHT_WriteAPDPReg(AP reg 0x01, 0x80011130)
T425C 000:664.229 - 0.387ms returns 0
T425C 000:664.270 JLINK_CORESIGHT_ReadAPDPReg(AP reg 0x03)
T425C 000:664.574   Value=0x808D5B00
T425C 000:664.615 - 0.344ms returns 0
T425C 000:664.633 JLINK_CORESIGHT_WriteAPDPReg(AP reg 0x00, 0x80000002)
T425C 000:664.913 - 0.279ms returns 0
T425C 000:664.949 JLINK_CORESIGHT_WriteAPDPReg(AP reg 0x01, 0x80011140)
T425C 000:665.255 - 0.305ms returns 0
T425C 000:665.277 JLINK_CORESIGHT_ReadAPDPReg(AP reg 0x03)
T425C 000:665.583   Value=0x00000000
T425C 000:665.628 - 0.351ms returns 0
T425C 000:665.647 JLINK_CORESIGHT_WriteAPDPReg(AP reg 0x00, 0x80000002)
T425C 000:665.948 - 0.300ms returns 0
T425C 000:665.984 JLINK_CORESIGHT_WriteAPDPReg(AP reg 0x01, 0x80011130)
T425C 000:666.328 - 0.338ms returns 0
T425C 000:666.375 JLINK_CORESIGHT_ReadAPDPReg(AP reg 0x03)
T425C 000:666.719   Value=0x0203030A
T425C 000:666.760 - 0.384ms returns 0
T425C 000:666.777 JLINK_CORESIGHT_WriteAPDPReg(AP reg 0x00, 0x80000002)
T425C 000:667.032 - 0.254ms returns 0
T425C 000:667.069 JLINK_CORESIGHT_WriteAPDPReg(AP reg 0x01, 0x80011140)
T425C 000:667.402 - 0.327ms returns 0
T425C 000:667.452 JLINK_CORESIGHT_ReadAPDPReg(AP reg 0x03)
T425C 000:667.797   Value=0x00000000
T425C 000:667.842 - 0.389ms returns 0
T425C 000:667.860 JLINK_CORESIGHT_WriteAPDPReg(AP reg 0x00, 0x80000002)
T425C 000:668.158 - 0.297ms returns 0
T425C 000:668.195 JLINK_CORESIGHT_WriteAPDPReg(AP reg 0x01, 0x80011130)
T425C 000:668.561 - 0.365ms returns 0
T425C 000:668.596 JLINK_CORESIGHT_ReadAPDPReg(AP reg 0x03)
T425C 000:668.911   Value=0x2C4B4E12
T425C 000:668.951 - 0.355ms returns 0
T425C 000:668.969 JLINK_CORESIGHT_WriteAPDPReg(AP reg 0x00, 0x80000002)
T425C 000:669.284 - 0.314ms returns 0
T425C 000:669.321 JLINK_CORESIGHT_WriteAPDPReg(AP reg 0x01, 0x80011140)
T425C 000:669.601 - 0.279ms returns 0
T425C 000:669.636 JLINK_CORESIGHT_ReadAPDPReg(AP reg 0x03)
T425C 000:669.976   Value=0x00000000
T425C 000:670.017 - 0.380ms returns 0
T425C 000:670.034 JLINK_CORESIGHT_WriteAPDPReg(AP reg 0x00, 0x80000002)
T425C 000:670.354 - 0.319ms returns 0
T425C 000:670.396 JLINK_CORESIGHT_WriteAPDPReg(AP reg 0x01, 0x80011130)
T425C 000:670.750 - 0.353ms returns 0
T425C 000:670.786 JLINK_CORESIGHT_ReadAPDPReg(AP reg 0x03)
T425C 000:671.096   Value=0x4E0FD252
T425C 000:671.136 - 0.350ms returns 0
T425C 000:671.155 JLINK_CORESIGHT_WriteAPDPReg(AP reg 0x00, 0x80000002)
T425C 000:671.414 - 0.258ms returns 0
T425C 000:671.450 JLINK_CORESIGHT_WriteAPDPReg(AP reg 0x01, 0x80011140)
T425C 000:671.708 - 0.257ms returns 0
T425C 000:671.744 JLINK_CORESIGHT_ReadAPDPReg(AP reg 0x03)
T425C 000:672.083   Value=0x00000000
T425C 000:672.123 - 0.379ms returns 0
T425C 000:672.141 JLINK_CORESIGHT_WriteAPDPReg(AP reg 0x00, 0x80000002)
T425C 000:672.499 - 0.357ms returns 0
T425C 000:672.550 JLINK_CORESIGHT_WriteAPDPReg(AP reg 0x01, 0x80011130)
T425C 000:672.962 - 0.412ms returns 0
T425C 000:673.003 JLINK_CORESIGHT_ReadAPDPReg(AP reg 0x03)
T425C 000:673.422   Value=0x35365936
T425C 000:673.462 - 0.459ms returns 0
T425C 000:673.480 JLINK_CORESIGHT_WriteAPDPReg(AP reg 0x00, 0x80000002)
T425C 000:673.794 - 0.314ms returns 0
T425C 000:673.849 JLINK_CORESIGHT_WriteAPDPReg(AP reg 0x01, 0x80011140)
T425C 000:674.134 - 0.284ms returns 0
T425C 000:674.171 JLINK_CORESIGHT_ReadAPDPReg(AP reg 0x03)
T425C 000:674.515   Value=0x00000000
T425C 000:674.557 - 0.385ms returns 0
T425C 000:674.574 JLINK_CORESIGHT_WriteAPDPReg(AP reg 0x00, 0x80000002)
T425C 000:674.835 - 0.260ms returns 0
T425C 000:674.870 JLINK_CORESIGHT_WriteAPDPReg(AP reg 0x01, 0x80011130)
T425C 000:675.131 - 0.261ms returns 0
T425C 000:675.166 JLINK_CORESIGHT_ReadAPDPReg(AP reg 0x03)
T425C 000:675.523   Value=0x69042D33
T425C 000:675.567 - 0.400ms returns 0
T425C 000:675.584 JLINK_CORESIGHT_WriteAPDPReg(AP reg 0x00, 0x80000002)
T425C 000:675.869 - 0.284ms returns 0
T425C 000:675.905 JLINK_CORESIGHT_WriteAPDPReg(AP reg 0x01, 0x80011140)
T425C 000:676.265 - 0.359ms returns 0
T425C 000:676.287 JLINK_CORESIGHT_ReadAPDPReg(AP reg 0x03)
T425C 000:676.571   Value=0x00000000
T425C 000:676.595 - 0.308ms returns 0
T425C 000:676.611 JLINK_CORESIGHT_WriteAPDPReg(AP reg 0x00, 0x80000002)
T425C 000:676.961 - 0.349ms returns 0
T425C 000:676.981 JLINK_CORESIGHT_WriteAPDPReg(AP reg 0x01, 0x80011130)
T425C 000:677.245 - 0.263ms returns 0
T425C 000:677.263 JLINK_CORESIGHT_ReadAPDPReg(AP reg 0x03)
T425C 000:677.553   Value=0x46375275
T425C 000:677.601 - 0.337ms returns 0
T425C 000:677.616 JLINK_CORESIGHT_WriteAPDPReg(AP reg 0x00, 0x80000002)
T425C 000:677.976 - 0.360ms returns 0
T425C 000:677.994 JLINK_CORESIGHT_WriteAPDPReg(AP reg 0x01, 0x80011140)
T425C 000:678.241 - 0.246ms returns 0
T425C 000:678.267 JLINK_CORESIGHT_ReadAPDPReg(AP reg 0x03)
T425C 000:678.569   Value=0x00000000
T425C 000:678.602 - 0.335ms returns 0
T425C 000:678.619 JLINK_CORESIGHT_WriteAPDPReg(AP reg 0x00, 0x80000002)
T425C 000:678.866 - 0.247ms returns 0
T425C 000:678.890 JLINK_CORESIGHT_WriteAPDPReg(AP reg 0x01, 0x80011130)
T425C 000:679.115 - 0.224ms returns 0
T425C 000:679.137 JLINK_CORESIGHT_ReadAPDPReg(AP reg 0x03)
T425C 000:679.461   Value=0x31443841
T425C 000:679.511 - 0.374ms returns 0
T425C 000:679.528 JLINK_CORESIGHT_WriteAPDPReg(AP reg 0x00, 0x80000002)
T425C 000:679.881 - 0.351ms returns 0
T425C 000:679.934 JLINK_CORESIGHT_WriteAPDPReg(AP reg 0x01, 0x80011140)
T425C 000:680.306 - 0.372ms returns 0
T425C 000:680.339 JLINK_CORESIGHT_ReadAPDPReg(AP reg 0x03)
T425C 000:680.619   Value=0x00000000
T425C 000:680.641 - 0.302ms returns 0
T425C 000:680.657 JLINK_CORESIGHT_WriteAPDPReg(AP reg 0x00, 0x80000002)
T425C 000:680.937 - 0.280ms returns 0
T425C 000:680.955 JLINK_CORESIGHT_WriteAPDPReg(AP reg 0x01, 0x80011130)
T425C 000:681.310 - 0.355ms returns 0
T425C 000:681.330 JLINK_CORESIGHT_ReadAPDPReg(AP reg 0x03)
T425C 000:681.691   Value=0x43324842
T425C 000:681.722 - 0.391ms returns 0
T425C 000:681.742 JLINK_CORESIGHT_WriteAPDPReg(AP reg 0x00, 0x80000002)
T425C 000:681.978 - 0.235ms returns 0
T425C 000:682.007 JLINK_CORESIGHT_WriteAPDPReg(AP reg 0x01, 0x80011140)
T425C 000:682.251 - 0.243ms returns 0
T425C 000:682.284 JLINK_CORESIGHT_ReadAPDPReg(AP reg 0x03)
T425C 000:682.581   Value=0x00000000
T425C 000:682.611 - 0.326ms returns 0
T425C 000:682.629 JLINK_CORESIGHT_WriteAPDPReg(AP reg 0x00, 0x80000002)
T425C 000:682.889 - 0.260ms returns 0
T425C 000:682.913 JLINK_CORESIGHT_WriteAPDPReg(AP reg 0x01, 0x80011130)
T425C 000:683.148 - 0.234ms returns 0
T425C 000:683.168 JLINK_CORESIGHT_ReadAPDPReg(AP reg 0x03)
T425C 000:683.588   Value=0x20204442
T425C 000:683.616 - 0.447ms returns 0
T425C 000:683.633 JLINK_CORESIGHT_WriteAPDPReg(AP reg 0x00, 0x80000002)
T425C 000:683.867 - 0.233ms returns 0
T425C 000:683.888 JLINK_CORESIGHT_WriteAPDPReg(AP reg 0x01, 0x80011140)
T425C 000:684.115 - 0.227ms returns 0
T425C 000:684.135 JLINK_CORESIGHT_ReadAPDPReg(AP reg 0x03)
T425C 000:684.471   Value=0x00000000
T425C 000:684.521 - 0.385ms returns 0
T425C 000:684.543 JLINK_CORESIGHT_WriteAPDPReg(AP reg 0x00, 0x80000002)
T425C 000:684.765 - 0.223ms returns 0
T425C 000:684.787 JLINK_CORESIGHT_WriteAPDPReg(AP reg 0x01, 0x80011130)
T425C 000:685.103 - 0.313ms returns 0
T425C 000:685.137 JLINK_CORESIGHT_ReadAPDPReg(AP reg 0x03)
T425C 000:685.540   Value=0x0003EC20
T425C 000:685.562 - 0.425ms returns 0
T425C 000:685.608 JLINK_CORESIGHT_WriteAPDPReg(AP reg 0x00, 0x80000002)
T425C 000:685.964 - 0.356ms returns 0
T425C 000:685.985 JLINK_CORESIGHT_WriteAPDPReg(AP reg 0x01, 0x80011140)
T425C 000:686.400 - 0.414ms returns 0
T425C 000:686.428 JLINK_CORESIGHT_ReadAPDPReg(AP reg 0x03)
T425C 000:686.788   Value=0x00000002
T425C 000:686.816 - 0.388ms returns 0
T425C 000:686.834 JLINK_CORESIGHT_WriteAPDPReg(AP reg 0x00, 0x80000002)
T425C 000:687.236 - 0.402ms returns 0
T425C 000:687.256 JLINK_CORESIGHT_WriteAPDPReg(AP reg 0x01, 0x80011120)
T425C 000:687.602 - 0.345ms returns 0
T425C 000:687.630 JLINK_CORESIGHT_WriteAPDPReg(AP reg 0x03, 0x2C010001)
T425C 000:687.924 - 0.294ms returns 0
T425C 000:687.951 JLINK_CORESIGHT_WriteAPDPReg(AP reg 0x00, 0x80000002)
T425C 000:688.255 - 0.302ms returns 0
T425C 000:688.287 JLINK_CORESIGHT_WriteAPDPReg(AP reg 0x01, 0x80011140)
T425C 000:688.555 - 0.266ms returns 0
T425C 000:688.586 JLINK_CORESIGHT_ReadAPDPReg(AP reg 0x03)
T425C 000:688.893   Value=0x00000002
T425C 000:688.927 - 0.340ms returns 0
T425C 000:688.946 JLINK_CORESIGHT_WriteAPDPReg(AP reg 0x00, 0x80000002)
T425C 000:689.251 - 0.304ms returns 0
T425C 000:689.277 JLINK_CORESIGHT_WriteAPDPReg(AP reg 0x01, 0x80011120)
T425C 000:689.511 - 0.234ms returns 0
T425C 000:689.552 JLINK_CORESIGHT_WriteAPDPReg(AP reg 0x03, 0x000003D3)
T425C 000:689.768 - 0.216ms returns 0
T425C 000:689.789 JLINK_CORESIGHT_WriteAPDPReg(AP reg 0x00, 0x80000002)
T425C 000:690.017 - 0.228ms returns 0
T425C 000:690.039 JLINK_CORESIGHT_WriteAPDPReg(AP reg 0x01, 0x80011140)
T425C 000:690.310 - 0.271ms returns 0
T425C 000:690.331 JLINK_CORESIGHT_ReadAPDPReg(AP reg 0x03)
T425C 000:690.636   Value=0x00000000
T425C 000:690.659 - 0.328ms returns 0
T425C 000:690.677 JLINK_CORESIGHT_WriteAPDPReg(AP reg 0x00, 0x80000002)
T425C 000:690.908 - 0.231ms returns 0
T425C 000:690.928 JLINK_CORESIGHT_WriteAPDPReg(AP reg 0x01, 0x80011130)
T425C 000:691.144 - 0.216ms returns 0
T425C 000:691.166 JLINK_CORESIGHT_ReadAPDPReg(AP reg 0x03)
T425C 000:691.498   Value=0x2C020081
T425C 000:691.521 - 0.355ms returns 0
T425C 000:691.540 JLINK_CORESIGHT_WriteAPDPReg(AP reg 0x00, 0x80000002)
T425C 000:691.761 - 0.220ms returns 0
T425C 000:691.782 JLINK_CORESIGHT_WriteAPDPReg(AP reg 0x01, 0x80011140)
T425C 000:692.051 - 0.268ms returns 0
T425C 000:692.073 JLINK_CORESIGHT_ReadAPDPReg(AP reg 0x03)
T425C 000:692.498   Value=0x00000000
T425C 000:692.524 - 0.451ms returns 0
T425C 000:692.543 JLINK_CORESIGHT_WriteAPDPReg(AP reg 0x00, 0x80000002)
T425C 000:692.765 - 0.222ms returns 0
T425C 000:692.786 JLINK_CORESIGHT_WriteAPDPReg(AP reg 0x01, 0x80011130)
T425C 000:693.038 - 0.252ms returns 0
T425C 000:693.058 JLINK_CORESIGHT_ReadAPDPReg(AP reg 0x03)
T425C 000:693.345   Value=0x0003CE04
T425C 000:693.368 - 0.310ms returns 0
T425C 000:693.396 JLINK_CORESIGHT_WriteAPDPReg(AP reg 0x00, 0x80000002)
T425C 000:693.666 - 0.268ms returns 0
T425C 000:693.706 JLINK_CORESIGHT_WriteAPDPReg(AP reg 0x01, 0x80011140)
T425C 000:693.997 - 0.290ms returns 0
T425C 000:694.018 JLINK_CORESIGHT_ReadAPDPReg(AP reg 0x03)
T425C 000:694.421   Value=0x00000002
T425C 000:694.457 - 0.439ms returns 0
T425C 000:694.479 JLINK_CORESIGHT_WriteAPDPReg(AP reg 0x00, 0x80000002)
T425C 000:694.771 - 0.292ms returns 0
T425C 000:694.795 JLINK_CORESIGHT_WriteAPDPReg(AP reg 0x01, 0x80011120)
T425C 000:695.126 - 0.330ms returns 0
T425C 000:695.159 JLINK_CORESIGHT_WriteAPDPReg(AP reg 0x03, 0x73010001)
T425C 000:695.394 - 0.234ms returns 0
T425C 000:695.430 JLINK_CORESIGHT_WriteAPDPReg(AP reg 0x00, 0x80000002)
T425C 000:695.665 - 0.235ms returns 0
T425C 000:695.698 JLINK_CORESIGHT_WriteAPDPReg(AP reg 0x01, 0x80011140)
T425C 000:696.077 - 0.378ms returns 0
T425C 000:696.110 JLINK_CORESIGHT_ReadAPDPReg(AP reg 0x03)
T425C 000:696.460   Value=0x00000002
T425C 000:696.489 - 0.378ms returns 0
T425C 000:696.509 JLINK_CORESIGHT_WriteAPDPReg(AP reg 0x00, 0x80000002)
T425C 000:696.760 - 0.250ms returns 0
T425C 000:696.782 JLINK_CORESIGHT_WriteAPDPReg(AP reg 0x01, 0x80011120)
T425C 000:697.138 - 0.355ms returns 0
T425C 000:697.161 JLINK_CORESIGHT_WriteAPDPReg(AP reg 0x03, 0x0000038C)
T425C 000:697.409 - 0.248ms returns 0
T425C 000:697.431 JLINK_CORESIGHT_WriteAPDPReg(AP reg 0x00, 0x80000002)
T425C 000:697.721 - 0.290ms returns 0
T425C 000:697.743 JLINK_CORESIGHT_WriteAPDPReg(AP reg 0x01, 0x80011140)
T425C 000:698.031 - 0.287ms returns 0
T425C 000:698.052 JLINK_CORESIGHT_ReadAPDPReg(AP reg 0x03)
T425C 000:698.447   Value=0x00000000
T425C 000:698.470 - 0.417ms returns 0
T425C 000:698.491 JLINK_CORESIGHT_WriteAPDPReg(AP reg 0x00, 0x80000002)
T425C 000:698.778 - 0.286ms returns 0
T425C 000:698.798 JLINK_CORESIGHT_WriteAPDPReg(AP reg 0x01, 0x80011130)
T425C 000:699.068 - 0.269ms returns 0
T425C 000:699.089 JLINK_CORESIGHT_ReadAPDPReg(AP reg 0x03)
T425C 000:699.512   Value=0x73020081
T425C 000:699.537 - 0.447ms returns 0
T425C 000:699.555 JLINK_CORESIGHT_WriteAPDPReg(AP reg 0x00, 0x80000002)
T425C 000:699.850 - 0.294ms returns 0
T425C 000:699.898 JLINK_CORESIGHT_WriteAPDPReg(AP reg 0x01, 0x80011140)
T425C 000:700.154 - 0.256ms returns 0
T425C 000:700.175 JLINK_CORESIGHT_ReadAPDPReg(AP reg 0x03)
T425C 000:700.441   Value=0x00000000
T425C 000:700.465 - 0.290ms returns 0
T425C 000:700.484 JLINK_CORESIGHT_WriteAPDPReg(AP reg 0x00, 0x80000002)
T425C 000:700.775 - 0.290ms returns 0
T425C 000:700.803 JLINK_CORESIGHT_WriteAPDPReg(AP reg 0x01, 0x80011130)
T425C 000:701.054 - 0.250ms returns 0
T425C 000:701.081 JLINK_CORESIGHT_ReadAPDPReg(AP reg 0x03)
T425C 000:701.490   Value=0x00038902
T425C 000:701.525 - 0.443ms returns 0
T425C 000:702.109 JLINK_CORESIGHT_WriteAPDPReg(AP reg 0x00, 0x80000002)
T425C 000:702.417 - 0.307ms returns 0
T425C 000:702.437 JLINK_CORESIGHT_WriteAPDPReg(AP reg 0x01, 0x80011140)
T425C 000:702.671 - 0.233ms returns 0
T425C 000:702.715 JLINK_CORESIGHT_ReadAPDPReg(AP reg 0x03)
T425C 000:703.016   Value=0x00000002
T425C 000:703.045 - 0.330ms returns 0
T425C 000:703.061 JLINK_CORESIGHT_WriteAPDPReg(AP reg 0x00, 0x80000002)
T425C 000:703.301 - 0.240ms returns 0
T425C 000:703.320 JLINK_CORESIGHT_WriteAPDPReg(AP reg 0x01, 0x80011120)
T425C 000:703.605 - 0.285ms returns 0
T425C 000:703.625 JLINK_CORESIGHT_WriteAPDPReg(AP reg 0x03, 0x75010001)
T425C 000:703.898 - 0.272ms returns 0
T425C 000:703.917 JLINK_CORESIGHT_WriteAPDPReg(AP reg 0x00, 0x80000002)
T425C 000:704.283 - 0.365ms returns 0
T425C 000:704.303 JLINK_CORESIGHT_WriteAPDPReg(AP reg 0x01, 0x80011140)
T425C 000:704.585 - 0.282ms returns 0
T425C 000:704.604 JLINK_CORESIGHT_ReadAPDPReg(AP reg 0x03)
T425C 000:705.017   Value=0x00000002
T425C 000:705.042 - 0.438ms returns 0
T425C 000:705.058 JLINK_CORESIGHT_WriteAPDPReg(AP reg 0x00, 0x80000002)
T425C 000:705.300 - 0.241ms returns 0
T425C 000:705.320 JLINK_CORESIGHT_WriteAPDPReg(AP reg 0x01, 0x80011120)
T425C 000:705.594 - 0.274ms returns 0
T425C 000:705.668 JLINK_CORESIGHT_WriteAPDPReg(AP reg 0x03, 0x0000038A)
T425C 000:705.951 - 0.283ms returns 0
T425C 000:705.971 JLINK_CORESIGHT_WriteAPDPReg(AP reg 0x00, 0x80000002)
T425C 000:706.317 - 0.346ms returns 0
T425C 000:706.339 JLINK_CORESIGHT_WriteAPDPReg(AP reg 0x01, 0x80011140)
T425C 000:706.600 - 0.260ms returns 0
T425C 000:706.620 JLINK_CORESIGHT_ReadAPDPReg(AP reg 0x03)
T425C 000:706.889   Value=0x00000000
T425C 000:706.920 - 0.299ms returns 0
T425C 000:706.938 JLINK_CORESIGHT_WriteAPDPReg(AP reg 0x00, 0x80000002)
T425C 000:707.159 - 0.221ms returns 0
T425C 000:707.185 JLINK_CORESIGHT_WriteAPDPReg(AP reg 0x01, 0x80011130)
T425C 000:707.428 - 0.243ms returns 0
T425C 000:707.456 JLINK_CORESIGHT_ReadAPDPReg(AP reg 0x03)
T425C 000:707.748   Value=0x75020081
T425C 000:707.791 - 0.335ms returns 0
T425C 000:707.807 JLINK_CORESIGHT_WriteAPDPReg(AP reg 0x00, 0x80000002)
T425C 000:708.052 - 0.244ms returns 0
T425C 000:708.075 JLINK_CORESIGHT_WriteAPDPReg(AP reg 0x01, 0x80011140)
T425C 000:708.418 - 0.343ms returns 0
T425C 000:708.439 JLINK_CORESIGHT_ReadAPDPReg(AP reg 0x03)
T425C 000:708.728   Value=0x00000000
T425C 000:708.754 - 0.314ms returns 0
T425C 000:708.770 JLINK_CORESIGHT_WriteAPDPReg(AP reg 0x00, 0x80000002)
T425C 000:708.994 - 0.223ms returns 0
T425C 000:709.013 JLINK_CORESIGHT_WriteAPDPReg(AP reg 0x01, 0x80011130)
T425C 000:709.300 - 0.287ms returns 0
T425C 000:709.319 JLINK_CORESIGHT_ReadAPDPReg(AP reg 0x03)
T425C 000:709.603   Value=0x00038702
T425C 000:709.627 - 0.307ms returns 0
T425C 000:709.649 JLINK_CORESIGHT_WriteAPDPReg(AP reg 0x00, 0x80000002)
T425C 000:709.923 - 0.273ms returns 0
T425C 000:709.941 JLINK_CORESIGHT_WriteAPDPReg(AP reg 0x01, 0x80011140)
T425C 000:710.259 - 0.315ms returns 0
T425C 000:710.286 JLINK_CORESIGHT_ReadAPDPReg(AP reg 0x03)
T425C 000:710.622   Value=0x00000002
T425C 000:710.647 - 0.360ms returns 0
T425C 000:710.662 JLINK_CORESIGHT_WriteAPDPReg(AP reg 0x00, 0x80000002)
T425C 000:710.912 - 0.250ms returns 0
T425C 000:710.932 JLINK_CORESIGHT_WriteAPDPReg(AP reg 0x01, 0x80011120)
T425C 000:711.169 - 0.237ms returns 0
T425C 000:711.188 JLINK_CORESIGHT_WriteAPDPReg(AP reg 0x03, 0x4F010001)
T425C 000:711.545 - 0.357ms returns 0
T425C 000:711.564 JLINK_CORESIGHT_WriteAPDPReg(AP reg 0x00, 0x80000002)
T425C 000:711.793 - 0.228ms returns 0
T425C 000:711.816 JLINK_CORESIGHT_WriteAPDPReg(AP reg 0x01, 0x80011140)
T425C 000:712.275 - 0.459ms returns 0
T425C 000:712.296 JLINK_CORESIGHT_ReadAPDPReg(AP reg 0x03)
T425C 000:712.691   Value=0x00000002
T425C 000:712.724 - 0.427ms returns 0
T425C 000:712.739 JLINK_CORESIGHT_WriteAPDPReg(AP reg 0x00, 0x80000002)
T425C 000:712.986 - 0.246ms returns 0
T425C 000:713.004 JLINK_CORESIGHT_WriteAPDPReg(AP reg 0x01, 0x80011120)
T425C 000:713.408 - 0.404ms returns 0
T425C 000:713.427 JLINK_CORESIGHT_WriteAPDPReg(AP reg 0x03, 0x000003B0)
T425C 000:713.794 - 0.366ms returns 0
T425C 000:713.818 JLINK_CORESIGHT_WriteAPDPReg(AP reg 0x00, 0x80000002)
T425C 000:714.191 - 0.372ms returns 0
T425C 000:714.218 JLINK_CORESIGHT_WriteAPDPReg(AP reg 0x01, 0x80011140)
T425C 000:714.533 - 0.315ms returns 0
T425C 000:714.592 JLINK_CORESIGHT_ReadAPDPReg(AP reg 0x03)
T425C 000:714.864   Value=0x00000000
T425C 000:714.893 - 0.301ms returns 0
T425C 000:714.909 JLINK_CORESIGHT_WriteAPDPReg(AP reg 0x00, 0x80000002)
T425C 000:715.146 - 0.237ms returns 0
T425C 000:715.167 JLINK_CORESIGHT_WriteAPDPReg(AP reg 0x01, 0x80011130)
T425C 000:715.390 - 0.223ms returns 0
T425C 000:715.411 JLINK_CORESIGHT_ReadAPDPReg(AP reg 0x03)
T425C 000:715.708   Value=0x4F0B0081
T425C 000:715.734 - 0.323ms returns 0
T425C 000:715.752 JLINK_CORESIGHT_WriteAPDPReg(AP reg 0x00, 0x80000002)
T425C 000:715.968 - 0.216ms returns 0
T425C 000:715.986 JLINK_CORESIGHT_WriteAPDPReg(AP reg 0x01, 0x80011140)
T425C 000:717.815 - 1.828ms returns 0
T425C 000:717.871 JLINK_CORESIGHT_ReadAPDPReg(AP reg 0x03)
T425C 000:718.150   Value=0x00000000
T425C 000:718.177 - 0.306ms returns 0
T425C 000:718.207 JLINK_CORESIGHT_WriteAPDPReg(AP reg 0x00, 0x80000002)
T425C 000:718.524 - 0.315ms returns 0
T425C 000:718.594 JLINK_CORESIGHT_WriteAPDPReg(AP reg 0x01, 0x80011130)
T425C 000:718.998 - 0.404ms returns 0
T425C 000:719.024 JLINK_CORESIGHT_ReadAPDPReg(AP reg 0x03)
T425C 000:719.508   Value=0xC0010000
T425C 000:719.558 - 0.534ms returns 0
T425C 000:719.578 JLINK_CORESIGHT_WriteAPDPReg(AP reg 0x00, 0x80000002)
T425C 000:719.896 - 0.318ms returns 0
T425C 000:719.928 JLINK_CORESIGHT_WriteAPDPReg(AP reg 0x01, 0x80011140)
T425C 000:720.299 - 0.370ms returns 0
T425C 000:720.325 JLINK_CORESIGHT_ReadAPDPReg(AP reg 0x03)
T425C 000:720.761   Value=0x00000000
T425C 000:720.794 - 0.469ms returns 0
T425C 000:720.811 JLINK_CORESIGHT_WriteAPDPReg(AP reg 0x00, 0x80000002)
T425C 000:721.138 - 0.326ms returns 0
T425C 000:721.165 JLINK_CORESIGHT_WriteAPDPReg(AP reg 0x01, 0x80011130)
T425C 000:721.481 - 0.316ms returns 0
T425C 000:721.506 JLINK_CORESIGHT_ReadAPDPReg(AP reg 0x03)
T425C 000:721.891   Value=0x00000000
T425C 000:721.939 - 0.432ms returns 0
T425C 000:721.957 JLINK_CORESIGHT_WriteAPDPReg(AP reg 0x00, 0x80000002)
T425C 000:722.291 - 0.334ms returns 0
T425C 000:722.322 JLINK_CORESIGHT_WriteAPDPReg(AP reg 0x01, 0x80011140)
T425C 000:722.700 - 0.377ms returns 0
T425C 000:722.733 JLINK_CORESIGHT_ReadAPDPReg(AP reg 0x03)
T425C 000:723.164   Value=0x00000000
T425C 000:723.193 - 0.460ms returns 0
T425C 000:723.209 JLINK_CORESIGHT_WriteAPDPReg(AP reg 0x00, 0x80000002)
T425C 000:723.487 - 0.277ms returns 0
T425C 000:723.510 JLINK_CORESIGHT_WriteAPDPReg(AP reg 0x01, 0x80011130)
T425C 000:723.780 - 0.269ms returns 0
T425C 000:723.805 JLINK_CORESIGHT_ReadAPDPReg(AP reg 0x03)
T425C 000:724.099   Value=0x03E50000
T425C 000:724.128 - 0.323ms returns 0
T425C 000:724.201 JLINK_CORESIGHT_WriteAPDPReg(AP reg 0x00, 0x80000002)
T425C 000:724.470 - 0.268ms returns 0
T425C 000:724.489 JLINK_CORESIGHT_WriteAPDPReg(AP reg 0x01, 0x80011140)
T425C 000:724.839 - 0.348ms returns 0
T425C 000:724.857 JLINK_CORESIGHT_ReadAPDPReg(AP reg 0x03)
T425C 000:725.120   Value=0x00000002
T425C 000:725.143 - 0.285ms returns 0
T425C 000:725.159 JLINK_CORESIGHT_WriteAPDPReg(AP reg 0x00, 0x80000002)
T425C 000:725.437 - 0.277ms returns 0
T425C 000:725.454 JLINK_CORESIGHT_WriteAPDPReg(AP reg 0x01, 0x80011120)
T425C 000:725.780 - 0.325ms returns 0
T425C 000:725.798 JLINK_CORESIGHT_WriteAPDPReg(AP reg 0x03, 0x2C010001)
T425C 000:726.122 - 0.323ms returns 0
T425C 000:726.142 JLINK_CORESIGHT_WriteAPDPReg(AP reg 0x00, 0x80000002)
T425C 000:726.449 - 0.306ms returns 0
T425C 000:726.469 JLINK_CORESIGHT_WriteAPDPReg(AP reg 0x01, 0x80011140)
T425C 000:726.793 - 0.323ms returns 0
T425C 000:726.815 JLINK_CORESIGHT_ReadAPDPReg(AP reg 0x03)
T425C 000:727.235   Value=0x00000002
T425C 000:727.260 - 0.444ms returns 0
T425C 000:727.280 JLINK_CORESIGHT_WriteAPDPReg(AP reg 0x00, 0x80000002)
T425C 000:727.561 - 0.281ms returns 0
T425C 000:727.581 JLINK_CORESIGHT_WriteAPDPReg(AP reg 0x01, 0x80011120)
T425C 000:727.911 - 0.329ms returns 0
T425C 000:727.932 JLINK_CORESIGHT_WriteAPDPReg(AP reg 0x03, 0x000003D3)
T425C 000:728.244 - 0.311ms returns 0
T425C 000:728.265 JLINK_CORESIGHT_WriteAPDPReg(AP reg 0x00, 0x80000002)
T425C 000:728.595 - 0.329ms returns 0
T425C 000:728.625 JLINK_CORESIGHT_WriteAPDPReg(AP reg 0x01, 0x80011140)
T425C 000:728.922 - 0.296ms returns 0
T425C 000:728.976 JLINK_CORESIGHT_ReadAPDPReg(AP reg 0x03)
T425C 000:729.295   Value=0x00000000
T425C 000:729.345 - 0.369ms returns 0
T425C 000:729.365 JLINK_CORESIGHT_WriteAPDPReg(AP reg 0x00, 0x80000002)
T425C 000:729.577 - 0.212ms returns 0
T425C 000:729.597 JLINK_CORESIGHT_WriteAPDPReg(AP reg 0x01, 0x80011130)
T425C 000:729.928 - 0.330ms returns 0
T425C 000:729.951 JLINK_CORESIGHT_ReadAPDPReg(AP reg 0x03)
T425C 000:730.325   Value=0x2C020081
T425C 000:730.352 - 0.400ms returns 0
T425C 000:730.371 JLINK_CORESIGHT_WriteAPDPReg(AP reg 0x00, 0x80000002)
T425C 000:730.641 - 0.270ms returns 0
T425C 000:730.666 JLINK_CORESIGHT_WriteAPDPReg(AP reg 0x01, 0x80011140)
T425C 000:730.992 - 0.326ms returns 0
T425C 000:731.035 JLINK_CORESIGHT_ReadAPDPReg(AP reg 0x03)
T425C 000:731.437   Value=0x00000000
T425C 000:731.470 - 0.435ms returns 0
T425C 000:731.491 JLINK_CORESIGHT_WriteAPDPReg(AP reg 0x00, 0x80000002)
T425C 000:731.716 - 0.224ms returns 0
T425C 000:731.745 JLINK_CORESIGHT_WriteAPDPReg(AP reg 0x01, 0x80011130)
T425C 000:731.964 - 0.219ms returns 0
T425C 000:731.990 JLINK_CORESIGHT_ReadAPDPReg(AP reg 0x03)
T425C 000:732.281   Value=0x0003CE04
T425C 000:732.309 - 0.318ms returns 0
T425C 000:732.336 JLINK_CORESIGHT_WriteAPDPReg(AP reg 0x00, 0x80000002)
T425C 000:732.550 - 0.214ms returns 0
T425C 000:732.573 JLINK_CORESIGHT_WriteAPDPReg(AP reg 0x01, 0x80011140)
T425C 000:732.860 - 0.286ms returns 0
T425C 000:732.884 JLINK_CORESIGHT_ReadAPDPReg(AP reg 0x03)
T425C 000:733.152   Value=0x00000002
T425C 000:733.179 - 0.294ms returns 0
T425C 000:733.200 JLINK_CORESIGHT_WriteAPDPReg(AP reg 0x00, 0x80000002)
T425C 000:733.470 - 0.270ms returns 0
T425C 000:733.492 JLINK_CORESIGHT_WriteAPDPReg(AP reg 0x01, 0x80011120)
T425C 000:733.829 - 0.336ms returns 0
T425C 000:733.881 JLINK_CORESIGHT_WriteAPDPReg(AP reg 0x03, 0x73010001)
T425C 000:734.158 - 0.277ms returns 0
T425C 000:734.195 JLINK_CORESIGHT_WriteAPDPReg(AP reg 0x00, 0x80000002)
T425C 000:734.486 - 0.290ms returns 0
T425C 000:734.508 JLINK_CORESIGHT_WriteAPDPReg(AP reg 0x01, 0x80011140)
T425C 000:734.745 - 0.237ms returns 0
T425C 000:734.767 JLINK_CORESIGHT_ReadAPDPReg(AP reg 0x03)
T425C 000:735.125   Value=0x00000002
T425C 000:735.176 - 0.408ms returns 0
T425C 000:735.205 JLINK_CORESIGHT_WriteAPDPReg(AP reg 0x00, 0x80000002)
T425C 000:735.440 - 0.234ms returns 0
T425C 000:735.464 JLINK_CORESIGHT_WriteAPDPReg(AP reg 0x01, 0x80011120)
T425C 000:735.790 - 0.325ms returns 0
T425C 000:735.826 JLINK_CORESIGHT_WriteAPDPReg(AP reg 0x03, 0x0000038C)
T425C 000:736.050 - 0.224ms returns 0
T425C 000:736.071 JLINK_CORESIGHT_WriteAPDPReg(AP reg 0x00, 0x80000002)
T425C 000:736.434 - 0.363ms returns 0
T425C 000:736.456 JLINK_CORESIGHT_WriteAPDPReg(AP reg 0x01, 0x80011140)
T425C 000:736.720 - 0.263ms returns 0
T425C 000:736.740 JLINK_CORESIGHT_ReadAPDPReg(AP reg 0x03)
T425C 000:737.109   Value=0x00000000
T425C 000:737.133 - 0.392ms returns 0
T425C 000:737.151 JLINK_CORESIGHT_WriteAPDPReg(AP reg 0x00, 0x80000002)
T425C 000:737.471 - 0.319ms returns 0
T425C 000:737.490 JLINK_CORESIGHT_WriteAPDPReg(AP reg 0x01, 0x80011130)
T425C 000:737.765 - 0.275ms returns 0
T425C 000:737.785 JLINK_CORESIGHT_ReadAPDPReg(AP reg 0x03)
T425C 000:738.180   Value=0x73020081
T425C 000:738.205 - 0.419ms returns 0
T425C 000:738.223 JLINK_CORESIGHT_WriteAPDPReg(AP reg 0x00, 0x80000002)
T425C 000:738.576 - 0.353ms returns 0
T425C 000:738.605 JLINK_CORESIGHT_WriteAPDPReg(AP reg 0x01, 0x80011140)
T425C 000:738.824 - 0.218ms returns 0
T425C 000:738.851 JLINK_CORESIGHT_ReadAPDPReg(AP reg 0x03)
T425C 000:739.138   Value=0x00000000
T425C 000:739.170 - 0.319ms returns 0
T425C 000:739.191 JLINK_CORESIGHT_WriteAPDPReg(AP reg 0x00, 0x80000002)
T425C 000:739.532 - 0.341ms returns 0
T425C 000:739.563 JLINK_CORESIGHT_WriteAPDPReg(AP reg 0x01, 0x80011130)
T425C 000:739.782 - 0.218ms returns 0
T425C 000:739.806 JLINK_CORESIGHT_ReadAPDPReg(AP reg 0x03)
T425C 000:740.111   Value=0x00038902
T425C 000:740.142 - 0.335ms returns 0
T425C 000:740.164 JLINK_CORESIGHT_WriteAPDPReg(AP reg 0x00, 0x80000002)
T425C 000:740.383 - 0.219ms returns 0
T425C 000:740.405 JLINK_CORESIGHT_WriteAPDPReg(AP reg 0x01, 0x80011140)
T425C 000:740.735 - 0.329ms returns 0
T425C 000:740.758 JLINK_CORESIGHT_ReadAPDPReg(AP reg 0x03)
T425C 000:741.102   Value=0x00000002
T425C 000:741.128 - 0.370ms returns 0
T425C 000:741.151 JLINK_CORESIGHT_WriteAPDPReg(AP reg 0x00, 0x80000002)
T425C 000:741.436 - 0.284ms returns 0
T425C 000:741.460 JLINK_CORESIGHT_WriteAPDPReg(AP reg 0x01, 0x80011120)
T425C 000:741.808 - 0.347ms returns 0
T425C 000:741.841 JLINK_CORESIGHT_WriteAPDPReg(AP reg 0x03, 0x75010001)
T425C 000:742.062 - 0.220ms returns 0
T425C 000:742.087 JLINK_CORESIGHT_WriteAPDPReg(AP reg 0x00, 0x80000002)
T425C 000:742.404 - 0.317ms returns 0
T425C 000:742.431 JLINK_CORESIGHT_WriteAPDPReg(AP reg 0x01, 0x80011140)
T425C 000:742.699 - 0.268ms returns 0
T425C 000:742.721 JLINK_CORESIGHT_ReadAPDPReg(AP reg 0x03)
T425C 000:743.029   Value=0x00000002
T425C 000:743.051 - 0.330ms returns 0
T425C 000:743.070 JLINK_CORESIGHT_WriteAPDPReg(AP reg 0x00, 0x80000002)
T425C 000:743.414 - 0.344ms returns 0
T425C 000:743.436 JLINK_CORESIGHT_WriteAPDPReg(AP reg 0x01, 0x80011120)
T425C 000:743.761 - 0.325ms returns 0
T425C 000:743.785 JLINK_CORESIGHT_WriteAPDPReg(AP reg 0x03, 0x0000038A)
T425C 000:744.074 - 0.288ms returns 0
T425C 000:744.096 JLINK_CORESIGHT_WriteAPDPReg(AP reg 0x00, 0x80000002)
T425C 000:744.406 - 0.310ms returns 0
T425C 000:744.431 JLINK_CORESIGHT_WriteAPDPReg(AP reg 0x01, 0x80011140)
T425C 000:744.642 - 0.211ms returns 0
T425C 000:744.663 JLINK_CORESIGHT_ReadAPDPReg(AP reg 0x03)
T425C 000:745.068   Value=0x00000000
T425C 000:745.114 - 0.450ms returns 0
T425C 000:745.135 JLINK_CORESIGHT_WriteAPDPReg(AP reg 0x00, 0x80000002)
T425C 000:745.413 - 0.277ms returns 0
T425C 000:745.445 JLINK_CORESIGHT_WriteAPDPReg(AP reg 0x01, 0x80011130)
T425C 000:745.680 - 0.235ms returns 0
T425C 000:745.710 JLINK_CORESIGHT_ReadAPDPReg(AP reg 0x03)
T425C 000:746.106   Value=0x75020081
T425C 000:746.153 - 0.442ms returns 0
T425C 000:746.174 JLINK_CORESIGHT_WriteAPDPReg(AP reg 0x00, 0x80000002)
T425C 000:746.523 - 0.348ms returns 0
T425C 000:746.553 JLINK_CORESIGHT_WriteAPDPReg(AP reg 0x01, 0x80011140)
T425C 000:746.883 - 0.329ms returns 0
T425C 000:746.908 JLINK_CORESIGHT_ReadAPDPReg(AP reg 0x03)
T425C 000:747.243   Value=0x00000000
T425C 000:747.267 - 0.358ms returns 0
T425C 000:747.287 JLINK_CORESIGHT_WriteAPDPReg(AP reg 0x00, 0x80000002)
T425C 000:747.557 - 0.270ms returns 0
T425C 000:747.579 JLINK_CORESIGHT_WriteAPDPReg(AP reg 0x01, 0x80011130)
T425C 000:747.846 - 0.267ms returns 0
T425C 000:747.868 JLINK_CORESIGHT_ReadAPDPReg(AP reg 0x03)
T425C 000:748.138   Value=0x00038702
T425C 000:748.162 - 0.294ms returns 0
T425C 000:748.185 JLINK_CORESIGHT_WriteAPDPReg(AP reg 0x00, 0x80000002)
T425C 000:748.426 - 0.241ms returns 0
T425C 000:748.448 JLINK_CORESIGHT_WriteAPDPReg(AP reg 0x01, 0x80011140)
T425C 000:748.773 - 0.324ms returns 0
T425C 000:748.801 JLINK_CORESIGHT_ReadAPDPReg(AP reg 0x03)
T425C 000:749.116   Value=0x00000002
T425C 000:749.142 - 0.341ms returns 0
T425C 000:749.162 JLINK_CORESIGHT_WriteAPDPReg(AP reg 0x00, 0x80000002)
T425C 000:749.446 - 0.284ms returns 0
T425C 000:749.469 JLINK_CORESIGHT_WriteAPDPReg(AP reg 0x01, 0x80011120)
T425C 000:749.792 - 0.323ms returns 0
T425C 000:749.815 JLINK_CORESIGHT_WriteAPDPReg(AP reg 0x03, 0x4E0B0001)
T425C 000:750.028 - 0.213ms returns 0
T425C 000:750.049 JLINK_CORESIGHT_WriteAPDPReg(AP reg 0x00, 0x80000002)
T425C 000:750.405 - 0.355ms returns 0
T425C 000:750.428 JLINK_CORESIGHT_WriteAPDPReg(AP reg 0x01, 0x80011140)
T425C 000:750.689 - 0.261ms returns 0
T425C 000:750.712 JLINK_CORESIGHT_ReadAPDPReg(AP reg 0x03)
T425C 000:751.036   Value=0x00000002
T425C 000:751.060 - 0.348ms returns 0
T425C 000:751.079 JLINK_CORESIGHT_WriteAPDPReg(AP reg 0x00, 0x80000002)
T425C 000:751.412 - 0.333ms returns 0
T425C 000:751.436 JLINK_CORESIGHT_WriteAPDPReg(AP reg 0x01, 0x80011120)
T425C 000:751.671 - 0.235ms returns 0
T425C 000:751.699 JLINK_CORESIGHT_WriteAPDPReg(AP reg 0x03, 0x60010000)
T425C 000:751.937 - 0.238ms returns 0
T425C 000:751.968 JLINK_CORESIGHT_WriteAPDPReg(AP reg 0x00, 0x80000002)
T425C 000:752.238 - 0.270ms returns 0
T425C 000:752.272 JLINK_CORESIGHT_WriteAPDPReg(AP reg 0x01, 0x80011140)
T425C 000:752.492 - 0.219ms returns 0
T425C 000:752.516 JLINK_CORESIGHT_ReadAPDPReg(AP reg 0x03)
T425C 000:752.780   Value=0x00000002
T425C 000:752.807 - 0.290ms returns 0
T425C 000:752.827 JLINK_CORESIGHT_WriteAPDPReg(AP reg 0x00, 0x80000002)
T425C 000:753.049 - 0.222ms returns 0
T425C 000:753.072 JLINK_CORESIGHT_WriteAPDPReg(AP reg 0x01, 0x80011120)
T425C 000:753.382 - 0.310ms returns 0
T425C 000:753.404 JLINK_CORESIGHT_WriteAPDPReg(AP reg 0x03, 0x00000000)
T425C 000:753.689 - 0.284ms returns 0
T425C 000:753.712 JLINK_CORESIGHT_WriteAPDPReg(AP reg 0x00, 0x80000002)
T425C 000:753.927 - 0.214ms returns 0
T425C 000:753.948 JLINK_CORESIGHT_WriteAPDPReg(AP reg 0x01, 0x80011140)
T425C 000:754.235 - 0.287ms returns 0
T425C 000:754.257 JLINK_CORESIGHT_ReadAPDPReg(AP reg 0x03)
T425C 000:754.540   Value=0x00000002
T425C 000:754.564 - 0.307ms returns 0
T425C 000:754.583 JLINK_CORESIGHT_WriteAPDPReg(AP reg 0x00, 0x80000002)
T425C 000:754.845 - 0.261ms returns 0
T425C 000:754.865 JLINK_CORESIGHT_WriteAPDPReg(AP reg 0x01, 0x80011120)
T425C 000:755.235 - 0.370ms returns 0
T425C 000:755.259 JLINK_CORESIGHT_WriteAPDPReg(AP reg 0x03, 0x03460000)
T425C 000:755.508 - 0.248ms returns 0
